! 2-Port S-Parameter Data
! Typical PCB trace channel, FR4, 50mm trace
! Generated for testing purposes
! Frequency in GHz, S-parameters in Real-Imaginary format
# GHz S RI R 50
! freq       S11_re    S11_im    S21_re    S21_im    S12_re    S12_im    S22_re    S22_im
0.1         -0.020    -0.010     0.998    -0.010     0.998    -0.010    -0.020    -0.010
0.2         -0.022    -0.020     0.995    -0.020     0.995    -0.020    -0.022    -0.020
0.5         -0.030    -0.050     0.985    -0.050     0.985    -0.050    -0.030    -0.050
0.8         -0.040    -0.080     0.970    -0.080     0.970    -0.080    -0.040    -0.080
1.0         -0.050    -0.100     0.955    -0.100     0.955    -0.100    -0.050    -0.100
1.5         -0.070    -0.140     0.920    -0.150     0.920    -0.150    -0.070    -0.140
2.0         -0.090    -0.180     0.880    -0.200     0.880    -0.200    -0.090    -0.180
2.5         -0.110    -0.210     0.840    -0.250     0.840    -0.250    -0.110    -0.210
3.0         -0.130    -0.240     0.790    -0.290     0.790    -0.290    -0.130    -0.240
3.5         -0.150    -0.260     0.740    -0.330     0.740    -0.330    -0.150    -0.260
4.0         -0.170    -0.280     0.690    -0.360     0.690    -0.360    -0.170    -0.280
4.5         -0.185    -0.295     0.640    -0.385     0.640    -0.385    -0.185    -0.295
5.0         -0.200    -0.310     0.590    -0.405     0.590    -0.405    -0.200    -0.310
5.5         -0.210    -0.320     0.540    -0.420     0.540    -0.420    -0.210    -0.320
6.0         -0.220    -0.330     0.490    -0.430     0.490    -0.430    -0.220    -0.330
6.5         -0.230    -0.335     0.440    -0.435     0.440    -0.435    -0.230    -0.335
7.0         -0.240    -0.340     0.390    -0.440     0.390    -0.440    -0.240    -0.340
7.5         -0.245    -0.342     0.345    -0.440     0.345    -0.440    -0.245    -0.342
8.0         -0.250    -0.345     0.300    -0.435     0.300    -0.435    -0.250    -0.345
8.5         -0.255    -0.347     0.260    -0.425     0.260    -0.425    -0.255    -0.347
9.0         -0.258    -0.348     0.220    -0.412     0.220    -0.412    -0.258    -0.348
9.5         -0.260    -0.350     0.185    -0.395     0.185    -0.395    -0.260    -0.350
10.0        -0.262    -0.351     0.150    -0.375     0.150    -0.375    -0.262    -0.351
